write to 0x68 ack data: 0x00 
read to 0x68 ack data: 0x13 0x26 0x21 0x01 0x02 0x02 0x26
write to 0x69 ack data: 0x3B 
read to 0x69 ack data: 0x02 0x98 0x3B 0x88 0xEA 0x4C 0x0C 0xF0 0x01 0xA5 0xFF 0x73 0x00 0xFF
write to 0x68 ack data: 0x00 
read to 0x68 ack data: 0x13 0x26 0x21 0x01 0x02 0x02 0x26
write to 0x69 ack data: 0x3B 
read to 0x69 ack data: 0x02 0x9C 0x3B 0x54 0xEA 0xC4 0x0C 0xF0 0x01 0x8F 0xFF 0x5E 0x00 0xE8
write to 0x68 ack data: 0x00 
read to 0x68 ack data: 0x13 0x26 0x21 0x01 0x02 0x02 0x26
write to 0x69 ack data: 0x3B 
read to 0x69 ack data: 0x02 0xD8 0x3B 0x9C 0xEA 0xA0 0x0C 0xF0 0x01 0x7B 0xFF 0x64 0x01 0x06
write to 0x68 ack data: 0x00 
read to 0x68 ack data: 0x13 0x26 0x21 0x01 0x02 0x02 0x26
write to 0x69 ack data: 0x3B 
read to 0x69 ack data: 0x02 0x6C 0x3B 0x38 0xEA 0xF4 0x0C 0xF0 0x01 0x74 0xFF 0x4F 0x01 0x0F
write to 0x68 ack data: 0x00 
read to 0x68 ack data: 0x13 0x26 0x21 0x01 0x02 0x02 0x26
write to 0x69 ack data: 0x3B 
read to 0x69 ack data: 0x02 0xA8 0x3B 0xA4 0xE9 0xF8 0x0C 0x80 0x01 0x61 0xFF 0x4F 0x00 0xE6
write to 0x68 ack data: 0x00 
read to 0x68 ack data: 0x13 0x26 0x21 0x01 0x02 0x02 0x26
write to 0x69 ack data: 0x3B 
read to 0x69 ack data: 0x02 0xC8 0x3B 0x74 0xEA 0x88 0x0D 0x20 0x01 0x84 0xFF 0x47 0x01 0x09
write to 0x68 ack data: 0x00 
read to 0x68 ack data: 0x13 0x26 0x21 0x01 0x02 0x02 0x26
write to 0x69 ack data: 0x3B 
read to 0x69 ack data: 0x02 0xD0 0x3B 0x60 0xEA 0xF8 0x0D 0x10 0x01 0x4E 0xFF 0x68 0x01 0x0B
write to 0x68 ack data: 0x00 
read to 0x68 ack data: 0x13 0x26 0x21 0x01 0x02 0x02 0x26
write to 0x69 ack data: 0x3B 
read to 0x69 ack data: 0x02 0x90 0x3B 0xA4 0xEA 0x78 0x0D 0x10 0x01 0x7E 0xFF 0x59 0x01 0x01
write to 0x68 ack data: 0x00 
read to 0x68 ack data: 0x13 0x26 0x21 0x01 0x02 0x02 0x26
write to 0x69 ack data: 0x3B 
read to 0x69 ack data: 0x02 0xB4 0x3B 0x5C 0xEA 0xC8 0x0D 0x10 0x01 0x83 0xFF 0x77 0x00 0xF4
write to 0x68 ack data: 0x00 
read to 0x68 ack data: 0x13 0x26 0x21 0x01 0x02 0x02 0x26
write to 0x69 ack data: 0x3B 
read to 0x69 ack data: 0x02 0xA8 0x3B 0x98 0xEA 0xB8 0x0C 0xE0 0x01 0x6C 0xFF 0x71 0x00 0xEA
write to 0x68 ack data: 0x00 
read to 0x68 ack data: 0x13 0x26 0x21 0x01 0x02 0x02 0x26
write to 0x69 ack data: 0x3B 
read to 0x69 ack data: 0x02 0xA4 0x3B 0x5C 0xEA 0xB8 0x0D 0x30 0x01 0x89 0xFF 0x76 0x01 0x16
write to 0x68 ack data: 0x00 
read to 0x68 ack data: 0x13 0x26 0x21 0x01 0x02 0x02 0x26
write to 0x69 ack data: 0x3B 
read to 0x69 ack data: 0x02 0x80 0x3B 0x88 0xEA 0x84 0x0D 0x50 0x01 0x50 0xFF 0x72 0x00 0xD2
write to 0x68 ack data: 0x00 
read to 0x68 ack data: 0x13 0x26 0x21 0x01 0x02 0x02 0x26
write to 0x69 ack data: 0x3B 
read to 0x69 ack data: 0x02 0xA0 0x3B 0xA0 0xEA 0x58 0x0D 0x10 0x01 0x95 0xFF 0x5A 0x00 0xFA
write to 0x68 ack data: 0x00 
read to 0x68 ack data: 0x14 0x26 0x21 0x01 0x02 0x02 0x26
write to 0x69 ack data: 0x3B 
read to 0x69 ack data: 0x02 0x74 0x3B 0x3C 0xEA 0x98 0x0C 0xF0 0x01 0x58 0xFF 0x54 0x00 0xE5
write to 0x68 ack data: 0x00 
read to 0x68 ack data: 0x14 0x26 0x21 0x01 0x02 0x02 0x26
write to 0x69 ack data: 0x3B 
read to 0x69 ack data: 0x02 0xA0 0x3B 0x84 0xEA 0xD8 0x0C 0xF0 0x01 0x5F 0xFF 0x81 0x00 0xF4
write to 0x68 ack data: 0x00 
read to 0x68 ack data: 0x14 0x26 0x21 0x01 0x02 0x02 0x26
write to 0x69 ack data: 0x3B 
read to 0x69 ack data: 0x02 0x48 0x3B 0x74 0xEA 0x5C 0x0D 0x10 0x01 0x9D 0xFF 0x7E 0x01 0x16
write to 0x68 ack data: 0x00 
read to 0x68 ack data: 0x14 0x26 0x21 0x01 0x02 0x02 0x26
write to 0x69 ack data: 0x3B 
read to 0x69 ack data: 0x02 0x94 0x3B 0x80 0xEA 0xF4 0x0D 0x10 0x01 0x68 0xFF 0x46 0x00 0xFD
write to 0x68 ack data: 0x00 
read to 0x68 ack data: 0x14 0x26 0x21 0x01 0x02 0x02 0x26
write to 0x69 ack data: 0x3B 
read to 0x69 ack data: 0x02 0xA8 0x3B 0x5C 0xEA 0xB0 0x0C 0xF0 0x01 0x7C 0xFF 0x58 0x00 0xF8
write to 0x68 ack data: 0x00 
read to 0x68 ack data: 0x14 0x26 0x21 0x01 0x02 0x02 0x26
write to 0x69 ack data: 0x3B 
read to 0x69 ack data: 0x02 0xBC 0x3B 0x7C 0xEB 0x6C 0x0C 0xF0 0x01 0x5B 0xFF 0x5F 0x00 0xD5
write to 0x68 ack data: 0x00 
read to 0x68 ack data: 0x14 0x26 0x21 0x01 0x02 0x02 0x26
write to 0x69 ack data: 0x3B 
read to 0x69 ack data: 0x02 0x64 0x3B 0x90 0xEA 0x68 0x0D 0x20 0x01 0x66 0xFF 0x59 0x00 0xFD
write to 0x68 ack data: 0x00 
read to 0x68 ack data: 0x14 0x26 0x21 0x01 0x02 0x02 0x26
write to 0x69 ack data: 0x3B 
read to 0x69 ack data: 0x02 0x8C 0x3B 0x64 0xEA 0xEC 0x0C 0xF0 0x01 0xA6 0xFF 0x69 0x01 0x0E
write to 0x68 ack data: 0x00 
read to 0x68 ack data: 0x14 0x26 0x21 0x01 0x02 0x02 0x26
write to 0x69 ack data: 0x3B 
read to 0x69 ack data: 0x02 0xB0 0x3B 0xB8 0xEB 0x10 0x0D 0x10 0x01 0x81 0xFF 0x78 0x00 0xF6
write to 0x68 ack data: 0x00 
read to 0x68 ack data: 0x14 0x26 0x21 0x01 0x02 0x02 0x26
write to 0x69 ack data: 0x3B 
read to 0x69 ack data: 0x02 0xD8 0x3B 0x44 0xEA 0xD0 0x0D 0x10 0x01 0x77 0xFF 0x3E 0x01 0x07
write to 0x68 ack data: 0x00 
read to 0x68 ack data: 0x14 0x26 0x21 0x01 0x02 0x02 0x26
write to 0x69 ack data: 0x3B 
read to 0x69 ack data: 0x02 0x90 0x3B 0x90 0xEB 0x0C 0x0D 0x20 0x01 0x5A 0xFF 0x52 0x00 0xE9
write to 0x68 ack data: 0x00 
read to 0x68 ack data: 0x14 0x26 0x21 0x01 0x02 0x02 0x26
write to 0x69 ack data: 0x3B 
read to 0x69 ack data: 0x02 0x84 0x3B 0x94 0xEA 0x94 0x0D 0x20 0x01 0x7F 0xFF 0x75 0x01 0x04
write to 0x68 ack data: 0x00 
read to 0x68 ack data: 0x14 0x26 0x21 0x01 0x02 0x02 0x26
write to 0x69 ack data: 0x3B 
read to 0x69 ack data: 0x02 0xC0 0x3B 0x64 0xEB 0x64 0x0D 0x10 0x01 0x78 0xFF 0x5C 0x00 0xFF
write to 0x68 ack data: 0x00 
read to 0x68 ack data: 0x14 0x26 0x21 0x01 0x02 0x02 0x26
write to 0x69 ack data: 0x3B 
read to 0x69 ack data: 0x02 0xAC 0x3B 0x94 0xEA 0xB0 0x0D 0x20 0x01 0x5B 0xFF 0x62 0x00 0xFC
write to 0x68 ack data: 0x00 
read to 0x68 ack data: 0x14 0x26 0x21 0x01 0x02 0x02 0x26
write to 0x69 ack data: 0x3B 
read to 0x69 ack data: 0x02 0xA8 0x3B 0x50 0xEA 0x90 0x0D 0x20 0x01 0x9C 0xFF 0x57 0x01 0x09
write to 0x68 ack data: 0x00 
read to 0x68 ack data: 0x14 0x26 0x21 0x01 0x02 0x02 0x26
write to 0x69 ack data: 0x3B 
read to 0x69 ack data: 0x02 0x98 0x3B 0xB8 0xEA 0x54 0x0C 0xF0 0x01 0x84 0xFF 0x62 0x00 0xFE
write to 0x68 ack data: 0x00 
read to 0x68 ack data: 0x14 0x26 0x21 0x01 0x02 0x02 0x26
write to 0x69 ack data: 0x3B 
read to 0x69 ack data: 0x02 0x94 0x3B 0x98 0xEA 0x80 0x0D 0x70 0x01 0x90 0xFF 0x58 0x00 0xFD
write to 0x68 ack data: 0x00 
read to 0x68 ack data: 0x14 0x26 0x21 0x01 0x02 0x02 0x26
write to 0x69 ack data: 0x3B 
read to 0x69 ack data: 0x02 0xA0 0x3B 0x84 0xEA 0xAC 0x0C 0xB0 0x01 0x66 0xFF 0x5D 0x00 0xE0
write to 0x68 ack data: 0x00 
read to 0x68 ack data: 0x15 0x26 0x21 0x01 0x02 0x02 0x26
write to 0x69 ack data: 0x3B 
read to 0x69 ack data: 0x02 0x70 0x3B 0xBC 0xEA 0xB0 0x0D 0x50 0x01 0x88 0xFF 0x4F 0x01 0x0D
write to 0x68 ack data: 0x00 
read to 0x68 ack data: 0x15 0x26 0x21 0x01 0x02 0x02 0x26
write to 0x69 ack data: 0x3B 
read to 0x69 ack data: 0x02 0xD8 0x3B 0x5C 0xEA 0x44 0x0D 0x50 0x01 0x7E 0xFF 0x62 0x01 0x17
write to 0x68 ack data: 0x00 
read to 0x68 ack data: 0x15 0x26 0x21 0x01 0x02 0x02 0x26
write to 0x69 ack data: 0x3B 
read to 0x69 ack data: 0x02 0xD0 0x3B 0x84 0xEA 0x34 0x0D 0x10 0x01 0x4B 0xFF 0x68 0x00 0xF0
write to 0x68 ack data: 0x00 
read to 0x68 ack data: 0x15 0x26 0x21 0x01 0x02 0x02 0x26
write to 0x69 ack data: 0x3B 
read to 0x69 ack data: 0x02 0xC8 0x3B 0x48 0xEA 0xCC 0x0D 0x50 0x01 0x8C 0xFF 0x67 0x00 0xEC
write to 0x68 ack data: 0x00 
read to 0x68 ack data: 0x15 0x26 0x21 0x01 0x02 0x02 0x26
write to 0x69 ack data: 0x3B 
read to 0x69 ack data: 0x02 0xCC 0x3B 0x64 0xEA 0x84 0x0C 0xF0 0x01 0x43 0xFF 0x4A 0x00 0xD9
write to 0x68 ack data: 0x00 
read to 0x68 ack data: 0x15 0x26 0x21 0x01 0x02 0x02 0x26
write to 0x69 ack data: 0x3B 
read to 0x69 ack data: 0x02 0xA8 0x3B 0x78 0xEA 0xE8 0x0C 0xF0 0x01 0xAF 0xFF 0x49 0x01 0x1C
write to 0x68 ack data: 0x00 
read to 0x68 ack data: 0x15 0x26 0x21 0x01 0x02 0x02 0x26
write to 0x69 ack data: 0x3B 
read to 0x69 ack data: 0x02 0xA0 0x3B 0x28 0xEA 0xD4 0x0D 0x10 0x01 0x6D 0xFF 0x62 0x00 0xF5
write to 0x68 ack data: 0x00 
read to 0x68 ack data: 0x15 0x26 0x21 0x01 0x02 0x02 0x26
write to 0x69 ack data: 0x3B 
read to 0x69 ack data: 0x02 0x8C 0x3B 0x8C 0xEA 0x34 0x0C 0xF0 0x01 0x8E 0xFF 0x50 0x00 0xE9
write to 0x68 ack data: 0x00 
read to 0x68 ack data: 0x15 0x26 0x21 0x01 0x02 0x02 0x26
write to 0x69 ack data: 0x3B 
read to 0x69 ack data: 0x02 0x6C 0x3B 0x6C 0xEA 0xC8 0x0C 0xE0 0x01 0x94 0xFF 0x4A 0x00 0xFA
